       * c:\users\kruna\esim-workspace\amreen_kaur_jc\amreen_kaur_jc.cir
       Transient Analysis  Fri Oct 07 19:00:13  2022
--------------------------------------------------------------------------------
Index   time            a5#branch_1_0   a8#branch_1_0   a8#branch_1_1   
--------------------------------------------------------------------------------
0	0.000000e+00	0.000000e+00	0.000000e+00	0.000000e+00	
1	2.000000e-12	6.938894e-18	0.000000e+00	0.000000e+00	
2	4.000000e-12	-6.93889e-18	0.000000e+00	0.000000e+00	
3	8.000000e-12	6.938894e-18	0.000000e+00	0.000000e+00	
4	1.600000e-11	0.000000e+00	0.000000e+00	0.000000e+00	
5	3.200000e-11	6.938894e-18	0.000000e+00	0.000000e+00	
6	6.400000e-11	-3.46945e-18	0.000000e+00	0.000000e+00	
7	1.280000e-10	4.336809e-18	0.000000e+00	0.000000e+00	
8	2.000000e-10	-2.16840e-18	0.000000e+00	0.000000e+00	
9	2.128000e-10	1.734723e-18	0.000000e+00	0.000000e+00	
10	2.384000e-10	8.673617e-19	0.000000e+00	0.000000e+00	
11	2.896000e-10	3.035766e-18	0.000000e+00	0.000000e+00	
12	3.920000e-10	-3.46945e-18	0.000000e+00	0.000000e+00	
13	5.968000e-10	3.577867e-18	0.000000e+00	0.000000e+00	
14	1.006400e-09	-3.19840e-18	0.000000e+00	0.000000e+00	
15	1.825600e-09	3.171291e-18	0.000000e+00	0.000000e+00	
16	2.128000e-09	-2.49366e-18	0.000000e+00	0.000000e+00	
17	2.228000e-09	0.000000e+00	0.000000e+00	0.000000e+00	
18	2.428000e-09	1.084202e-19	0.000000e+00	0.000000e+00	
19	2.828000e-09	1.084202e-19	0.000000e+00	0.000000e+00	
20	3.128000e-09	2.168404e-19	0.000000e+00	0.000000e+00	
21	3.208000e-09	0.000000e+00	0.000000e+00	0.000000e+00	
22	3.368000e-09	-4.33681e-19	0.000000e+00	0.000000e+00	
23	3.688000e-09	5.421011e-19	0.000000e+00	0.000000e+00	
24	4.328000e-09	-3.79471e-19	0.000000e+00	0.000000e+00	
25	5.608000e-09	4.878910e-19	0.000000e+00	0.000000e+00	
26	8.168000e-09	-4.06576e-19	0.000000e+00	0.000000e+00	
27	1.328800e-08	3.659182e-19	0.000000e+00	0.000000e+00	
28	2.352800e-08	-3.86247e-19	0.000000e+00	0.000000e+00	
29	4.400800e-08	3.777767e-19	0.000000e+00	0.000000e+00	
30	8.496800e-08	-3.77777e-19	0.000000e+00	0.000000e+00	
31	1.668880e-07	3.760826e-19	0.000000e+00	0.000000e+00	
32	3.307280e-07	-3.75871e-19	0.000000e+00	0.000000e+00	
33	6.584080e-07	3.760826e-19	0.000000e+00	0.000000e+00	
34	1.313768e-06	-3.76718e-19	0.000000e+00	0.000000e+00	
35	2.624488e-06	3.765591e-19	0.000000e+00	0.000000e+00	
36	5.245928e-06	-3.76519e-19	0.000000e+00	0.000000e+00	
37	1.048881e-05	3.765392e-19	0.000000e+00	0.000000e+00	
38	2.097457e-05	-3.76559e-19	0.000000e+00	0.000000e+00	
39	4.194609e-05	3.765657e-19	0.000000e+00	0.000000e+00	
40	8.388913e-05	-3.76564e-19	0.000000e+00	0.000000e+00	
41	1.677752e-04	3.765587e-19	0.000000e+00	0.000000e+00	
42	2.677752e-04	-3.76560e-19	0.000000e+00	0.000000e+00	
43	3.677752e-04	3.765597e-19	0.000000e+00	0.000000e+00	
44	4.677752e-04	-3.76560e-19	0.000000e+00	0.000000e+00	
45	5.677752e-04	3.765601e-19	0.000000e+00	0.000000e+00	
46	6.677752e-04	-3.76560e-19	0.000000e+00	0.000000e+00	
47	7.677752e-04	3.765603e-19	0.000000e+00	0.000000e+00	
48	8.677752e-04	-3.76561e-19	0.000000e+00	0.000000e+00	
49	9.677752e-04	3.765609e-19	0.000000e+00	0.000000e+00	
50	1.067775e-03	-3.76561e-19	0.000000e+00	0.000000e+00	
51	1.167775e-03	3.765622e-19	0.000000e+00	0.000000e+00	
52	1.267775e-03	-3.76562e-19	0.000000e+00	0.000000e+00	
53	1.367775e-03	3.765624e-19	0.000000e+00	0.000000e+00	
54	1.467775e-03	-3.76564e-19	0.000000e+00	0.000000e+00	

Index   time            a5#branch_1_0   a8#branch_1_0   a8#branch_1_1   
--------------------------------------------------------------------------------
55	1.567775e-03	3.765630e-19	0.000000e+00	0.000000e+00	
56	1.667775e-03	-3.76564e-19	0.000000e+00	0.000000e+00	
57	1.767775e-03	3.765643e-19	0.000000e+00	0.000000e+00	
58	1.867775e-03	-3.76564e-19	0.000000e+00	0.000000e+00	
59	1.967775e-03	3.765645e-19	0.000000e+00	0.000000e+00	
60	2.067775e-03	-3.76566e-19	0.000000e+00	0.000000e+00	
61	2.167775e-03	3.765651e-19	0.000000e+00	0.000000e+00	
62	2.267775e-03	-3.76566e-19	0.000000e+00	0.000000e+00	
63	2.367775e-03	3.765663e-19	0.000000e+00	0.000000e+00	
64	2.467775e-03	-3.76566e-19	0.000000e+00	0.000000e+00	
65	2.500000e-03	3.765682e-19	0.000000e+00	0.000000e+00	
66	2.500000e-03	-5.20417e-18	0.000000e+00	0.000000e+00	
67	2.500000e-03	-1.73472e-18	0.000000e+00	0.000000e+00	
68	2.500000e-03	8.673617e-19	0.000000e+00	0.000000e+00	
69	2.500000e-03	-2.60209e-18	0.000000e+00	0.000000e+00	
70	2.500000e-03	-3.46945e-18	0.000000e+00	0.000000e+00	
71	2.500000e-03	3.469447e-18	0.000000e+00	0.000000e+00	
72	2.500000e-03	1.734723e-18	0.000000e+00	0.000000e+00	
73	2.500000e-03	0.000000e+00	0.000000e+00	0.000000e+00	
74	2.500001e-03	-1.08420e-18	0.000000e+00	0.000000e+00	
75	2.500001e-03	7.589415e-19	0.000000e+00	0.000000e+00	
76	2.500001e-03	-5.96311e-19	0.000000e+00	0.000000e+00	
77	2.500002e-03	5.963112e-19	0.000000e+00	0.000000e+00	
78	2.500004e-03	-5.96311e-19	0.000000e+00	0.000000e+00	
79	2.500008e-03	5.692061e-19	0.000000e+00	0.000000e+00	
80	2.500017e-03	-5.75982e-19	0.000000e+00	0.000000e+00	
81	2.500033e-03	5.776765e-19	0.000000e+00	0.000000e+00	
82	2.500066e-03	-5.85300e-19	0.000000e+00	0.000000e+00	
83	2.500131e-03	5.844527e-19	0.000000e+00	0.000000e+00	
84	2.500262e-03	-5.85300e-19	0.000000e+00	0.000000e+00	
85	2.500525e-03	5.855115e-19	0.000000e+00	0.000000e+00	
86	2.501049e-03	-5.85776e-19	0.000000e+00	0.000000e+00	
87	2.502097e-03	5.857498e-19	0.000000e+00	0.000000e+00	
88	2.504195e-03	-5.85763e-19	0.000000e+00	0.000000e+00	
89	2.508389e-03	5.857498e-19	0.000000e+00	0.000000e+00	
90	2.516778e-03	-5.85733e-19	0.000000e+00	0.000000e+00	
91	2.533555e-03	5.857431e-19	0.000000e+00	0.000000e+00	
92	2.567109e-03	-5.85751e-19	0.000000e+00	0.000000e+00	
93	2.634218e-03	5.857489e-19	0.000000e+00	0.000000e+00	
94	2.734218e-03	-5.85751e-19	0.000000e+00	0.000000e+00	
95	2.834218e-03	5.857512e-19	0.000000e+00	0.000000e+00	
96	2.934218e-03	-5.85752e-19	0.000000e+00	0.000000e+00	
97	3.034218e-03	5.857518e-19	0.000000e+00	0.000000e+00	
98	3.134218e-03	-5.85752e-19	0.000000e+00	0.000000e+00	
99	3.234218e-03	5.857518e-19	0.000000e+00	0.000000e+00	
100	3.334218e-03	-5.85755e-19	0.000000e+00	0.000000e+00	
101	3.434218e-03	5.857541e-19	0.000000e+00	0.000000e+00	
102	3.534218e-03	-5.85755e-19	0.000000e+00	0.000000e+00	
103	3.634218e-03	5.857547e-19	0.000000e+00	0.000000e+00	
104	3.734218e-03	-5.85755e-19	0.000000e+00	0.000000e+00	
105	3.834218e-03	5.857551e-19	0.000000e+00	0.000000e+00	
106	3.934218e-03	-5.85758e-19	0.000000e+00	0.000000e+00	
107	4.034218e-03	5.857574e-19	0.000000e+00	0.000000e+00	
108	4.134218e-03	-5.85758e-19	0.000000e+00	0.000000e+00	
109	4.234218e-03	5.857580e-19	0.000000e+00	0.000000e+00	
110	4.334218e-03	-5.85758e-19	0.000000e+00	0.000000e+00	
111	4.434218e-03	5.857584e-19	0.000000e+00	0.000000e+00	
112	4.534218e-03	-5.85761e-19	0.000000e+00	0.000000e+00	

Index   time            a5#branch_1_0   a8#branch_1_0   a8#branch_1_1   
--------------------------------------------------------------------------------
113	4.634218e-03	5.857607e-19	0.000000e+00	0.000000e+00	
114	4.734218e-03	-5.85761e-19	0.000000e+00	0.000000e+00	
115	4.834218e-03	5.857613e-19	0.000000e+00	0.000000e+00	
116	4.934218e-03	-5.85761e-19	0.000000e+00	0.000000e+00	
117	5.000000e-03	5.857626e-19	0.000000e+00	0.000000e+00	
118	5.000000e-03	0.000000e+00	0.000000e+00	0.000000e+00	
119	5.000000e-03	-1.73472e-18	0.000000e+00	0.000000e+00	
120	5.000000e-03	-2.60209e-18	0.000000e+00	0.000000e+00	
121	5.000000e-03	-2.60209e-18	0.000000e+00	0.000000e+00	
122	5.000000e-03	1.734723e-18	0.000000e+00	0.000000e+00	
123	5.000000e-03	1.734723e-18	0.000000e+00	0.000000e+00	
124	5.000000e-03	1.734723e-18	0.000000e+00	0.000000e+00	
125	5.000000e-03	1.734723e-18	0.000000e+00	0.000000e+00	
126	5.000000e-03	-8.67362e-19	0.000000e+00	0.000000e+00	
127	5.000001e-03	2.168404e-19	0.000000e+00	0.000000e+00	
128	5.000001e-03	-3.25261e-19	0.000000e+00	0.000000e+00	
129	5.000002e-03	1.355253e-19	0.000000e+00	0.000000e+00	
130	5.000002e-03	3.252607e-19	0.000000e+00	0.000000e+00	
131	5.000002e-03	3.252607e-19	0.000000e+00	0.000000e+00	
132	5.000003e-03	1.084202e-19	0.000000e+00	0.000000e+00	
133	5.000003e-03	-2.16840e-19	0.000000e+00	0.000000e+00	
134	5.000003e-03	4.336809e-19	0.000000e+00	0.000000e+00	
135	5.000003e-03	2.168404e-19	0.000000e+00	0.000000e+00	
136	5.000004e-03	0.000000e+00	0.000000e+00	0.000000e+00	
137	5.000004e-03	0.000000e+00	0.000000e+00	0.000000e+00	
138	5.000006e-03	1.084202e-19	0.000000e+00	0.000000e+00	
139	5.000008e-03	-9.48677e-20	0.000000e+00	0.000000e+00	
140	5.000013e-03	7.453890e-20	0.000000e+00	0.000000e+00	
141	5.000024e-03	-6.09864e-20	0.000000e+00	0.000000e+00	
142	5.000044e-03	6.268044e-20	0.000000e+00	0.000000e+00	
143	5.000085e-03	-5.75982e-20	0.000000e+00	0.000000e+00	
144	5.000167e-03	5.759824e-20	0.000000e+00	0.000000e+00	
145	5.000331e-03	-5.65394e-20	0.000000e+00	0.000000e+00	
146	5.000658e-03	5.738648e-20	0.000000e+00	0.000000e+00	
147	5.001314e-03	-5.72806e-20	0.000000e+00	0.000000e+00	
148	5.002624e-03	5.728060e-20	0.000000e+00	0.000000e+00	
149	5.005246e-03	-5.72144e-20	0.000000e+00	0.000000e+00	
150	5.010489e-03	5.722766e-20	0.000000e+00	0.000000e+00	
151	5.020975e-03	-5.72177e-20	0.000000e+00	0.000000e+00	
152	5.041946e-03	5.721774e-20	0.000000e+00	0.000000e+00	
153	5.083889e-03	-5.72194e-20	0.000000e+00	0.000000e+00	
154	5.167775e-03	5.721981e-20	0.000000e+00	0.000000e+00	
155	5.267775e-03	-5.72182e-20	0.000000e+00	0.000000e+00	
156	5.367775e-03	5.721960e-20	0.000000e+00	0.000000e+00	
157	5.467775e-03	-5.72194e-20	0.000000e+00	0.000000e+00	
158	5.567775e-03	5.722043e-20	0.000000e+00	0.000000e+00	
159	5.667775e-03	-5.72198e-20	0.000000e+00	0.000000e+00	
160	5.767775e-03	5.721732e-20	0.000000e+00	0.000000e+00	
161	5.867775e-03	-5.72175e-20	0.000000e+00	0.000000e+00	
162	5.967775e-03	5.721691e-20	0.000000e+00	0.000000e+00	
163	6.067775e-03	-5.72171e-20	0.000000e+00	0.000000e+00	
164	6.167775e-03	5.721670e-20	0.000000e+00	0.000000e+00	
165	6.267775e-03	-5.72155e-20	0.000000e+00	0.000000e+00	
166	6.367775e-03	5.721443e-20	0.000000e+00	0.000000e+00	
167	6.467775e-03	-5.72150e-20	0.000000e+00	0.000000e+00	
168	6.567775e-03	5.721422e-20	0.000000e+00	0.000000e+00	
169	6.667775e-03	-5.72138e-20	0.000000e+00	0.000000e+00	
170	6.767775e-03	5.721195e-20	0.000000e+00	0.000000e+00	

Index   time            a5#branch_1_0   a8#branch_1_0   a8#branch_1_1   
--------------------------------------------------------------------------------
171	6.867775e-03	-5.72130e-20	0.000000e+00	0.000000e+00	
172	6.967775e-03	5.721215e-20	0.000000e+00	0.000000e+00	
173	7.067775e-03	-5.72117e-20	0.000000e+00	0.000000e+00	
174	7.167775e-03	5.720988e-20	0.000000e+00	0.000000e+00	
175	7.267775e-03	-5.72105e-20	0.000000e+00	0.000000e+00	
176	7.367775e-03	5.721009e-20	0.000000e+00	0.000000e+00	
177	7.467775e-03	-5.72093e-20	0.000000e+00	0.000000e+00	
178	7.567775e-03	5.720802e-20	0.000000e+00	0.000000e+00	
179	7.667775e-03	-5.72072e-20	0.000000e+00	0.000000e+00	
180	7.767775e-03	5.720781e-20	0.000000e+00	0.000000e+00	
181	7.867775e-03	-5.72074e-20	0.000000e+00	0.000000e+00	
182	7.967775e-03	5.720616e-20	0.000000e+00	0.000000e+00	
183	8.067775e-03	-5.72064e-20	0.000000e+00	0.000000e+00	
184	8.167775e-03	5.720595e-20	0.000000e+00	0.000000e+00	
185	8.267775e-03	-5.72051e-20	0.000000e+00	0.000000e+00	
186	8.367775e-03	5.720368e-20	0.000000e+00	0.000000e+00	
187	8.467775e-03	-5.72043e-20	0.000000e+00	0.000000e+00	
188	8.567775e-03	5.720347e-20	0.000000e+00	0.000000e+00	
189	8.667775e-03	-5.72031e-20	0.000000e+00	0.000000e+00	
190	8.767775e-03	5.720161e-20	0.000000e+00	0.000000e+00	
191	8.867775e-03	-5.72022e-20	0.000000e+00	0.000000e+00	
192	8.967775e-03	5.720140e-20	0.000000e+00	0.000000e+00	
193	9.067775e-03	-5.72006e-20	0.000000e+00	0.000000e+00	
194	9.167775e-03	5.719954e-20	0.000000e+00	0.000000e+00	
195	9.267775e-03	-5.72002e-20	0.000000e+00	0.000000e+00	
196	9.367775e-03	5.719975e-20	0.000000e+00	0.000000e+00	
197	9.467775e-03	-5.71985e-20	0.000000e+00	0.000000e+00	
198	9.567775e-03	5.719747e-20	0.000000e+00	0.000000e+00	
199	9.667775e-03	-5.71981e-20	0.000000e+00	0.000000e+00	
200	9.767775e-03	5.719768e-20	0.000000e+00	0.000000e+00	
201	9.867775e-03	-5.71964e-20	0.000000e+00	0.000000e+00	
202	9.967775e-03	5.719499e-20	0.000000e+00	0.000000e+00	
203	1.000000e-02	-5.71929e-20	0.000000e+00	0.000000e+00	

       * c:\users\kruna\esim-workspace\amreen_kaur_jc\amreen_kaur_jc.cir
       Transient Analysis  Fri Oct 07 19:00:13  2022
--------------------------------------------------------------------------------
Index   time            a8#branch_1_2   a8#branch_1_3   v2#branch       
--------------------------------------------------------------------------------
0	0.000000e+00	0.000000e+00	0.000000e+00	-5.18691e-12	
1	2.000000e-12	0.000000e+00	0.000000e+00	-5.18707e-12	
2	4.000000e-12	0.000000e+00	0.000000e+00	-5.18704e-12	
3	8.000000e-12	0.000000e+00	0.000000e+00	-5.18702e-12	
4	1.600000e-11	0.000000e+00	0.000000e+00	-5.18691e-12	
5	3.200000e-11	0.000000e+00	0.000000e+00	-5.18699e-12	
6	6.400000e-11	0.000000e+00	0.000000e+00	-5.18702e-12	
7	1.280000e-10	0.000000e+00	0.000000e+00	-5.18706e-12	
8	2.000000e-10	0.000000e+00	0.000000e+00	-5.18695e-12	
9	2.128000e-10	0.000000e+00	0.000000e+00	-5.18699e-12	
10	2.384000e-10	0.000000e+00	0.000000e+00	-5.18698e-12	
11	2.896000e-10	0.000000e+00	0.000000e+00	-5.18704e-12	
12	3.920000e-10	0.000000e+00	0.000000e+00	-5.18699e-12	
13	5.968000e-10	0.000000e+00	0.000000e+00	-5.18716e-12	
14	1.006400e-09	0.000000e+00	0.000000e+00	-5.18703e-12	
15	1.825600e-09	0.000000e+00	0.000000e+00	-5.18703e-12	
16	2.128000e-09	0.000000e+00	0.000000e+00	-5.18704e-12	
17	2.228000e-09	0.000000e+00	0.000000e+00	-5.18710e-12	
18	2.428000e-09	0.000000e+00	0.000000e+00	-5.18711e-12	
19	2.828000e-09	0.000000e+00	0.000000e+00	-5.18697e-12	
20	3.128000e-09	0.000000e+00	0.000000e+00	-5.18700e-12	
21	3.208000e-09	0.000000e+00	0.000000e+00	-5.18703e-12	
22	3.368000e-09	0.000000e+00	0.000000e+00	-5.18703e-12	
23	3.688000e-09	0.000000e+00	0.000000e+00	-5.18707e-12	
24	4.328000e-09	0.000000e+00	0.000000e+00	-5.18697e-12	
25	5.608000e-09	0.000000e+00	0.000000e+00	-5.18694e-12	
26	8.168000e-09	0.000000e+00	0.000000e+00	-5.18696e-12	
27	1.328800e-08	0.000000e+00	0.000000e+00	-5.18700e-12	
28	2.352800e-08	0.000000e+00	0.000000e+00	-5.18697e-12	
29	4.400800e-08	0.000000e+00	0.000000e+00	-5.18698e-12	
30	8.496800e-08	0.000000e+00	0.000000e+00	-5.18696e-12	
31	1.668880e-07	0.000000e+00	0.000000e+00	-5.18701e-12	
32	3.307280e-07	0.000000e+00	0.000000e+00	-5.18709e-12	
33	6.584080e-07	0.000000e+00	0.000000e+00	-5.18704e-12	
34	1.313768e-06	0.000000e+00	0.000000e+00	-5.18694e-12	
35	2.624488e-06	0.000000e+00	0.000000e+00	-5.18704e-12	
36	5.245928e-06	0.000000e+00	0.000000e+00	-5.18702e-12	
37	1.048881e-05	0.000000e+00	0.000000e+00	-5.18708e-12	
38	2.097457e-05	0.000000e+00	0.000000e+00	-5.18699e-12	
39	4.194609e-05	0.000000e+00	0.000000e+00	-5.18703e-12	
40	8.388913e-05	0.000000e+00	0.000000e+00	-5.18700e-12	
41	1.677752e-04	0.000000e+00	0.000000e+00	-5.18698e-12	
42	2.677752e-04	0.000000e+00	0.000000e+00	-5.18696e-12	
43	3.677752e-04	0.000000e+00	0.000000e+00	-5.18696e-12	
44	4.677752e-04	0.000000e+00	0.000000e+00	-5.18696e-12	
45	5.677752e-04	0.000000e+00	0.000000e+00	-5.18701e-12	
46	6.677752e-04	0.000000e+00	0.000000e+00	-5.18696e-12	
47	7.677752e-04	0.000000e+00	0.000000e+00	-5.18701e-12	
48	8.677752e-04	0.000000e+00	0.000000e+00	-5.18696e-12	
49	9.677752e-04	0.000000e+00	0.000000e+00	-5.18701e-12	
50	1.067775e-03	0.000000e+00	0.000000e+00	-5.18696e-12	
51	1.167775e-03	0.000000e+00	0.000000e+00	-5.18701e-12	
52	1.267775e-03	0.000000e+00	0.000000e+00	-5.18696e-12	
53	1.367775e-03	0.000000e+00	0.000000e+00	-5.18701e-12	
54	1.467775e-03	0.000000e+00	0.000000e+00	-5.18696e-12	

Index   time            a8#branch_1_2   a8#branch_1_3   v2#branch       
--------------------------------------------------------------------------------
55	1.567775e-03	0.000000e+00	0.000000e+00	-5.18701e-12	
56	1.667775e-03	0.000000e+00	0.000000e+00	-5.18696e-12	
57	1.767775e-03	0.000000e+00	0.000000e+00	-5.18701e-12	
58	1.867775e-03	0.000000e+00	0.000000e+00	-5.18696e-12	
59	1.967775e-03	0.000000e+00	0.000000e+00	-5.18701e-12	
60	2.067775e-03	0.000000e+00	0.000000e+00	-5.18696e-12	
61	2.167775e-03	0.000000e+00	0.000000e+00	-5.18701e-12	
62	2.267775e-03	0.000000e+00	0.000000e+00	-5.18696e-12	
63	2.367775e-03	0.000000e+00	0.000000e+00	-5.18701e-12	
64	2.467775e-03	0.000000e+00	0.000000e+00	-5.18696e-12	
65	2.500000e-03	0.000000e+00	0.000000e+00	-5.18710e-12	
66	2.500000e-03	0.000000e+00	0.000000e+00	-5.18702e-12	
67	2.500000e-03	0.000000e+00	0.000000e+00	-5.18700e-12	
68	2.500000e-03	0.000000e+00	0.000000e+00	-5.18709e-12	
69	2.500000e-03	0.000000e+00	0.000000e+00	-5.18698e-12	
70	2.500000e-03	0.000000e+00	0.000000e+00	-5.18706e-12	
71	2.500000e-03	0.000000e+00	0.000000e+00	-5.18699e-12	
72	2.500000e-03	0.000000e+00	0.000000e+00	-5.18699e-12	
73	2.500000e-03	0.000000e+00	0.000000e+00	-5.18708e-12	
74	2.500001e-03	0.000000e+00	0.000000e+00	-5.18701e-12	
75	2.500001e-03	0.000000e+00	0.000000e+00	-5.18702e-12	
76	2.500001e-03	0.000000e+00	0.000000e+00	-5.18707e-12	
77	2.500002e-03	0.000000e+00	0.000000e+00	-5.18700e-12	
78	2.500004e-03	0.000000e+00	0.000000e+00	-5.18703e-12	
79	2.500008e-03	0.000000e+00	0.000000e+00	-5.18693e-12	
80	2.500017e-03	0.000000e+00	0.000000e+00	-5.18708e-12	
81	2.500033e-03	0.000000e+00	0.000000e+00	-5.18700e-12	
82	2.500066e-03	0.000000e+00	0.000000e+00	-5.18700e-12	
83	2.500131e-03	0.000000e+00	0.000000e+00	-5.18701e-12	
84	2.500262e-03	0.000000e+00	0.000000e+00	-5.18699e-12	
85	2.500525e-03	0.000000e+00	0.000000e+00	-5.18709e-12	
86	2.501049e-03	0.000000e+00	0.000000e+00	-5.18695e-12	
87	2.502097e-03	0.000000e+00	0.000000e+00	-5.18700e-12	
88	2.504195e-03	0.000000e+00	0.000000e+00	-5.18699e-12	
89	2.508389e-03	0.000000e+00	0.000000e+00	-5.18701e-12	
90	2.516778e-03	0.000000e+00	0.000000e+00	-5.18700e-12	
91	2.533555e-03	0.000000e+00	0.000000e+00	-5.18697e-12	
92	2.567109e-03	0.000000e+00	0.000000e+00	-5.18701e-12	
93	2.634218e-03	0.000000e+00	0.000000e+00	-5.18696e-12	
94	2.734218e-03	0.000000e+00	0.000000e+00	-5.18696e-12	
95	2.834218e-03	0.000000e+00	0.000000e+00	-5.18702e-12	
96	2.934218e-03	0.000000e+00	0.000000e+00	-5.18696e-12	
97	3.034218e-03	0.000000e+00	0.000000e+00	-5.18696e-12	
98	3.134218e-03	0.000000e+00	0.000000e+00	-5.18696e-12	
99	3.234218e-03	0.000000e+00	0.000000e+00	-5.18696e-12	
100	3.334218e-03	0.000000e+00	0.000000e+00	-5.18696e-12	
101	3.434218e-03	0.000000e+00	0.000000e+00	-5.18702e-12	
102	3.534218e-03	0.000000e+00	0.000000e+00	-5.18696e-12	
103	3.634218e-03	0.000000e+00	0.000000e+00	-5.18696e-12	
104	3.734218e-03	0.000000e+00	0.000000e+00	-5.18696e-12	
105	3.834218e-03	0.000000e+00	0.000000e+00	-5.18696e-12	
106	3.934218e-03	0.000000e+00	0.000000e+00	-5.18696e-12	
107	4.034218e-03	0.000000e+00	0.000000e+00	-5.18702e-12	
108	4.134218e-03	0.000000e+00	0.000000e+00	-5.18696e-12	
109	4.234218e-03	0.000000e+00	0.000000e+00	-5.18696e-12	
110	4.334218e-03	0.000000e+00	0.000000e+00	-5.18696e-12	
111	4.434218e-03	0.000000e+00	0.000000e+00	-5.18696e-12	
112	4.534218e-03	0.000000e+00	0.000000e+00	-5.18696e-12	

Index   time            a8#branch_1_2   a8#branch_1_3   v2#branch       
--------------------------------------------------------------------------------
113	4.634218e-03	0.000000e+00	0.000000e+00	-5.18702e-12	
114	4.734218e-03	0.000000e+00	0.000000e+00	-5.18696e-12	
115	4.834218e-03	0.000000e+00	0.000000e+00	-5.18696e-12	
116	4.934218e-03	0.000000e+00	0.000000e+00	-5.18696e-12	
117	5.000000e-03	0.000000e+00	0.000000e+00	-5.18707e-12	
